
**** 05/18/22 20:45:43 ******* PSpice 17.4.0 (Nov 2018) ******* ID# 0 ********

 ** Profile: "SCHEMATIC1-simulare"  [ C:\OrcadProjects\proiect\cad_project-pspicefiles\schematic1\simulare.sim ] 


 ****     CIRCUIT DESCRIPTION


******************************************************************************




** Creating circuit file "simulare.cir" 
** WARNING: THIS AUTOMATICALLY GENERATED FILE MAY BE OVERWRITTEN BY SUBSEQUENT SIMULATIONS

*Libraries: 
* Profile Libraries :
* Local Libraries :
* From [PSPICE NETLIST] section of D:\OrCad\SPB_data\cdssetup\OrCAD_PSpice\17.4.0\PSpice.ini file:
.lib "nom.lib" 

*Analysis directives: 
.TRAN  0 1000ns 0 10n 
.STEP LIN PARAM set 0 1 0.1 
.OPTIONS ADVCONV
.PROBE64 V(alias(*)) I(alias(*)) W(alias(*)) D(alias(*)) NOISE(alias(*)) 
.INC "..\SCHEMATIC1.net" 



**** INCLUDING SCHEMATIC1.net ****
* source CAD_PROJECT
R_R5         0 OUT R_R5 1k TC=0,0 
.model        R_R5 RES R=1 DEV=1% TC1=0 TC2=0
X_TX1    N03643 0 N03521 N03525 SCHEMATIC1_TX1 
X_R6         N04053 N03735 N08279 POT PARAMS: SET={set} VALUE=10k
D_D2         0 N03521 D1N4148 
C_C1         0 N03415  10m  TC=0,0 
D_D4         0 N03525 D1N4148 
X_U3A         N03529 N03735 N03415 0 N03673 TL082
R_R4         0 N04053 R_R4 20k TC=0,0 
.model        R_R4 RES R=1 DEV=1% TC1=0 TC2=0
R_R1         N03529 N03415 R_R1 1k TC=0,0 
.model        R_R1 RES R=1 DEV=1% TC1=0 TC2=0
R_R2         OUT N03743 R_R2 0.3 TC=0,0 
.model        R_R2 RES R=1 DEV=1% TC1=0 TC2=0
D_D3         N03525 N03415 D1N4148 
Q_Q1         N03415 N03673 N03743 Q2N3055
D_D1         N03521 N03415 D1N4148 
R_R7         N03635 N03643 R_R7 1 TC=0,0 
.model        R_R7 RES R=1 DEV=1% TC1=0 TC2=0
Q_Q2         N03673 N03743 OUT Q2N3055
R_R8         N08279 OUT R_R8 2k  
.model        r_R8 RES R=1 DEV=1%
V_V1         N03635 0  
+SIN 0 155.563491861 60 0 0 0
X_D5         0 N03529 awb1n4737 PARAMS:               
.PARAM  r0=10 set=1

.subckt SCHEMATIC1_TX1 1 2 3 4  
K_TX1         L1_TX1 L2_TX1 1
L1_TX1         1 2 100mH
L2_TX1         3 4 10mH
.ends SCHEMATIC1_TX1

**** RESUMING simulare.cir ****
.END

**** 05/18/22 20:45:43 ******* PSpice 17.4.0 (Nov 2018) ******* ID# 0 ********

 ** Profile: "SCHEMATIC1-simulare"  [ C:\OrcadProjects\proiect\cad_project-pspicefiles\schematic1\simulare.sim ] 


 ****     Diode MODEL PARAMETERS


******************************************************************************




               D1N4148         X_U3A.dx        X_U3A.dy        
          IS    2.682000E-09  800.000000E-18  800.000000E-18 
           N    1.836                                        
         ISR    1.565000E-09                                 
         IKF     .04417                                      
          BV  100                                            
         IBV  100.000000E-06                                 
          RS     .5664                          1.000000E-03 
          TT   11.540000E-09                                 
         CJO    4.000000E-12                   10.000000E-12 
          VJ     .5                                          
           M     .3333                                       


**** 05/18/22 20:45:43 ******* PSpice 17.4.0 (Nov 2018) ******* ID# 0 ********

 ** Profile: "SCHEMATIC1-simulare"  [ C:\OrcadProjects\proiect\cad_project-pspicefiles\schematic1\simulare.sim ] 


 ****     BJT MODEL PARAMETERS


******************************************************************************




               Q2N3055         
               NPN             
       LEVEL    1            
          IS  974.400000E-15 
          BF   99.49         
          NF    1            
         VAF   50            
         IKF    4.029        
         ISE  902.500000E-12 
          NE    1.941        
          BR    2.949        
          NR    1            
         ISS    0            
          RB     .1          
          RE    0            
          RC     .1          
         CJE  569.100000E-12 
         VJE     .75         
         MJE     .3333       
         CJC  276.000000E-12 
         VJC     .75         
         MJC     .3333       
        XCJC    1            
         CJS    0            
         VJS     .75         
          TF   39.110000E-09 
         XTF    2            
         VTF   10            
         ITF   20            
          TR  971.700000E-09 
         XTB    1.5          
          KF    0            
          AF    1            
          CN    2.42         
           D     .87         


**** 05/18/22 20:45:43 ******* PSpice 17.4.0 (Nov 2018) ******* ID# 0 ********

 ** Profile: "SCHEMATIC1-simulare"  [ C:\OrcadProjects\proiect\cad_project-pspicefiles\schematic1\simulare.sim ] 


 ****     Junction FET MODEL PARAMETERS


******************************************************************************




               X_U3A.jx1       X_U3A.jx2       
               NJF             NJF             
         VTO   -1              -1            
        BETA  222.070000E-06  222.070000E-06 
          IS  100.000000E-12  100.000000E-12 


**** 05/18/22 20:45:43 ******* PSpice 17.4.0 (Nov 2018) ******* ID# 0 ********

 ** Profile: "SCHEMATIC1-simulare"  [ C:\OrcadProjects\proiect\cad_project-pspicefiles\schematic1\simulare.sim ] 


 ****     Resistor MODEL PARAMETERS


******************************************************************************




               R_R5            R_R4            R_R1            R_R2            
           R    1               1               1               1            


               R_R7            R_R8            
           R    1               1            


**** 05/18/22 20:45:43 ******* PSpice 17.4.0 (Nov 2018) ******* ID# 0 ********

 ** Profile: "SCHEMATIC1-simulare"  [ C:\OrcadProjects\proiect\cad_project-pspicefiles\schematic1\simulare.sim ] 


 ****     INITIAL TRANSIENT SOLUTION       TEMPERATURE =   27.000 DEG C

 ****     CURRENT STEP                     PARAM SET =    0     


******************************************************************************



 NODE   VOLTAGE     NODE   VOLTAGE     NODE   VOLTAGE     NODE   VOLTAGE


(  OUT)    7.9557  (N03415)   10.0680 (N03521)    5.0340 (N03525)    5.0340     

(N03529)    7.4602 (N03635)    0.0000 (N03643)    0.0000 (N03673)    8.5479     

(N03735)    7.4585 (N03743)    7.9582 (N04053)    4.9723 (N08279)    7.4585     

(X_U3A.6)    -.0438                   (X_U3A.7)    9.4770                       

(X_U3A.8)    9.4770                   (X_U3A.9)    0.0000                       

(X_U3A.10)    7.8549                  (X_U3A.11)    9.6388                      

(X_U3A.12)    9.6364                  (X_U3A.53)    7.7522                      

(X_U3A.54)    2.3158                  (X_U3A.90)   18.5810                      

(X_U3A.91)   40.0000                  (X_U3A.92)  -40.0000                      

(X_U3A.99)    5.0340                  (X_D5.xinst1n4737.1)     .4651            

(X_D5.xinst1n4737.3)    6.9951        (X_D5.xinst1n4737.9) 9.188E-06        




    VOLTAGE SOURCE CURRENTS
    NAME         CURRENT

    V_V1         0.000E+00
    X_U3A.vb    -4.379E-07
    X_U3A.vc    -1.839E-02
    X_U3A.ve     5.916E-12
    X_U3A.vlim   1.858E-02
    X_U3A.vlp   -2.142E-11
    X_U3A.vln   -5.858E-11

    TOTAL POWER DISSIPATION   4.26E-02  WATTS


WARNING(ORPSIM-16534): Using high values of ITL4 for Speed Level > 0 may increase total simulation job time.

**** 05/18/22 20:45:43 ******* PSpice 17.4.0 (Nov 2018) ******* ID# 0 ********

 ** Profile: "SCHEMATIC1-simulare"  [ C:\OrcadProjects\proiect\cad_project-pspicefiles\schematic1\simulare.sim ] 


 ****     INITIAL TRANSIENT SOLUTION       TEMPERATURE =   27.000 DEG C

 ****     CURRENT STEP                     PARAM SET =     .1   


******************************************************************************



 NODE   VOLTAGE     NODE   VOLTAGE     NODE   VOLTAGE     NODE   VOLTAGE


(  OUT)    8.2317  (N03415)   10.3440 (N03521)    5.1720 (N03525)    5.1720     

(N03529)    7.4618 (N03635)    0.0000 (N03643)    0.0000 (N03673)    8.8249     

(N03735)    7.4600 (N03743)    8.2342 (N04053)    5.1448 (N08279)    7.7172     

(X_U3A.6)    -.0456                   (X_U3A.7)    9.7924                       

(X_U3A.8)    9.7924                   (X_U3A.9)    0.0000                       

(X_U3A.10)    7.8567                  (X_U3A.11)    9.9151                      

(X_U3A.12)    9.9125                  (X_U3A.53)    8.0281                      

(X_U3A.54)    2.3158                  (X_U3A.90)   19.3490                      

(X_U3A.91)   40.0000                  (X_U3A.92)  -40.0000                      

(X_U3A.99)    5.1720                  (X_D5.xinst1n4737.1)     .4667            

(X_D5.xinst1n4737.3)    6.9951        (X_D5.xinst1n4737.9) 10.16E-06        




    VOLTAGE SOURCE CURRENTS
    NAME         CURRENT

    V_V1         0.000E+00
    X_U3A.vb    -4.561E-07
    X_U3A.vc    -1.915E-02
    X_U3A.ve     6.193E-12
    X_U3A.vlim   1.935E-02
    X_U3A.vlp   -2.065E-11
    X_U3A.vln   -5.935E-11

    TOTAL POWER DISSIPATION   4.44E-02  WATTS


**** 05/18/22 20:45:43 ******* PSpice 17.4.0 (Nov 2018) ******* ID# 0 ********

 ** Profile: "SCHEMATIC1-simulare"  [ C:\OrcadProjects\proiect\cad_project-pspicefiles\schematic1\simulare.sim ] 


 ****     INITIAL TRANSIENT SOLUTION       TEMPERATURE =   27.000 DEG C

 ****     CURRENT STEP                     PARAM SET =     .2   


******************************************************************************



 NODE   VOLTAGE     NODE   VOLTAGE     NODE   VOLTAGE     NODE   VOLTAGE


(  OUT)    8.5273  (N03415)   10.6390 (N03521)    5.3197 (N03525)    5.3197     

(N03529)    7.4633 (N03635)    0.0000 (N03643)    0.0000 (N03673)    9.1216     

(N03735)    7.4614 (N03743)    8.5300 (N04053)    5.3296 (N08279)    7.9944     

(X_U3A.6)    -.0476                   (X_U3A.7)   10.1300                       

(X_U3A.8)   10.1300                   (X_U3A.9)    0.0000                       

(X_U3A.10)    7.8584                  (X_U3A.11)   10.2110                      

(X_U3A.12)   10.2080                  (X_U3A.53)    8.3237                      

(X_U3A.54)    2.3158                  (X_U3A.90)   20.1710                      

(X_U3A.91)   40.0000                  (X_U3A.92)  -40.0000                      

(X_U3A.99)    5.3197                  (X_D5.xinst1n4737.1)     .4682            

(X_D5.xinst1n4737.3)    6.9951        (X_D5.xinst1n4737.9) 11.20E-06        




    VOLTAGE SOURCE CURRENTS
    NAME         CURRENT

    V_V1         0.000E+00
    X_U3A.vb    -4.756E-07
    X_U3A.vc    -1.997E-02
    X_U3A.ve     6.490E-12
    X_U3A.vlim   2.017E-02
    X_U3A.vlp   -1.983E-11
    X_U3A.vln   -6.017E-11

    TOTAL POWER DISSIPATION   4.62E-02  WATTS


**** 05/18/22 20:45:43 ******* PSpice 17.4.0 (Nov 2018) ******* ID# 0 ********

 ** Profile: "SCHEMATIC1-simulare"  [ C:\OrcadProjects\proiect\cad_project-pspicefiles\schematic1\simulare.sim ] 


 ****     INITIAL TRANSIENT SOLUTION       TEMPERATURE =   27.000 DEG C

 ****     CURRENT STEP                     PARAM SET =     .3   


******************************************************************************



 NODE   VOLTAGE     NODE   VOLTAGE     NODE   VOLTAGE     NODE   VOLTAGE


(  OUT)    8.8448  (N03415)   10.9570 (N03521)    5.4784 (N03525)    5.4784     

(N03529)    7.4648 (N03635)    0.0000 (N03643)    0.0000 (N03673)    9.4401     

(N03735)    7.4628 (N03743)    8.8476 (N04053)    5.5280 (N08279)    8.2920     

(X_U3A.6)    -.0496                   (X_U3A.7)   10.4930                       

(X_U3A.8)   10.4930                   (X_U3A.9)    0.0000                       

(X_U3A.10)    7.8600                  (X_U3A.11)   10.5290                      

(X_U3A.12)   10.5260                  (X_U3A.53)    8.6411                      

(X_U3A.54)    2.3158                  (X_U3A.90)   21.0540                      

(X_U3A.91)   40.0000                  (X_U3A.92)  -40.0000                      

(X_U3A.99)    5.4785                  (X_D5.xinst1n4737.1)     .4697            

(X_D5.xinst1n4737.3)    6.9951        (X_D5.xinst1n4737.9) 12.32E-06        




    VOLTAGE SOURCE CURRENTS
    NAME         CURRENT

    V_V1         0.000E+00
    X_U3A.vb    -4.964E-07
    X_U3A.vc    -2.085E-02
    X_U3A.ve     6.808E-12
    X_U3A.vlim   2.105E-02
    X_U3A.vlp   -1.895E-11
    X_U3A.vln   -6.105E-11

    TOTAL POWER DISSIPATION   4.83E-02  WATTS


**** 05/18/22 20:45:43 ******* PSpice 17.4.0 (Nov 2018) ******* ID# 0 ********

 ** Profile: "SCHEMATIC1-simulare"  [ C:\OrcadProjects\proiect\cad_project-pspicefiles\schematic1\simulare.sim ] 


 ****     INITIAL TRANSIENT SOLUTION       TEMPERATURE =   27.000 DEG C

 ****     CURRENT STEP                     PARAM SET =     .4   


******************************************************************************



 NODE   VOLTAGE     NODE   VOLTAGE     NODE   VOLTAGE     NODE   VOLTAGE


(  OUT)    9.1867  (N03415)   11.2990 (N03521)    5.6493 (N03525)    5.6493     

(N03529)    7.4662 (N03635)    0.0000 (N03643)    0.0000 (N03673)    9.7831     

(N03735)    7.4642 (N03743)    9.1896 (N04053)    5.7417 (N08279)    8.6125     

(X_U3A.6)    -.0519                   (X_U3A.7)   10.8830                       

(X_U3A.8)   10.8830                   (X_U3A.9)    0.0000                       

(X_U3A.10)    7.8617                  (X_U3A.11)   10.8710                      

(X_U3A.12)   10.8680                  (X_U3A.53)    8.9829                      

(X_U3A.54)    2.3158                  (X_U3A.90)   22.0050                      

(X_U3A.91)   40.0000                  (X_U3A.92)  -40.0000                      

(X_U3A.99)    5.6494                  (X_D5.xinst1n4737.1)     .4711            

(X_D5.xinst1n4737.3)    6.9951        (X_D5.xinst1n4737.9) 13.53E-06        




    VOLTAGE SOURCE CURRENTS
    NAME         CURRENT

    V_V1         0.000E+00
    X_U3A.vb    -5.190E-07
    X_U3A.vc    -2.179E-02
    X_U3A.ve     7.151E-12
    X_U3A.vlim   2.201E-02
    X_U3A.vlp   -1.800E-11
    X_U3A.vln   -6.201E-11

    TOTAL POWER DISSIPATION   5.05E-02  WATTS


**** 05/18/22 20:45:43 ******* PSpice 17.4.0 (Nov 2018) ******* ID# 0 ********

 ** Profile: "SCHEMATIC1-simulare"  [ C:\OrcadProjects\proiect\cad_project-pspicefiles\schematic1\simulare.sim ] 


 ****     INITIAL TRANSIENT SOLUTION       TEMPERATURE =   27.000 DEG C

 ****     CURRENT STEP                     PARAM SET =     .5   


******************************************************************************



 NODE   VOLTAGE     NODE   VOLTAGE     NODE   VOLTAGE     NODE   VOLTAGE


(  OUT)    9.5559  (N03415)   11.6680 (N03521)    5.8340 (N03525)    5.8340     

(N03529)    7.4676 (N03635)    0.0000 (N03643)    0.0000 (N03673)   10.1530     

(N03735)    7.4655 (N03743)    9.5589 (N04053)    5.9724 (N08279)    8.9587     

(X_U3A.6)    -.0543                   (X_U3A.7)   11.3050                       

(X_U3A.8)   11.3050                   (X_U3A.9)    0.0000                       

(X_U3A.10)    7.8634                  (X_U3A.11)   11.2410                      

(X_U3A.12)   11.2380                  (X_U3A.53)    9.3521                      

(X_U3A.54)    2.3158                  (X_U3A.90)   23.0320                      

(X_U3A.91)   40.0000                  (X_U3A.92)  -40.0000                      

(X_U3A.99)    5.8339                  (X_D5.xinst1n4737.1)     .4725            

(X_D5.xinst1n4737.3)    6.9951        (X_D5.xinst1n4737.9) 14.83E-06        




    VOLTAGE SOURCE CURRENTS
    NAME         CURRENT

    V_V1         0.000E+00
    X_U3A.vb    -5.433E-07
    X_U3A.vc    -2.281E-02
    X_U3A.ve     7.521E-12
    X_U3A.vlim   2.303E-02
    X_U3A.vlp   -1.697E-11
    X_U3A.vln   -6.303E-11

    TOTAL POWER DISSIPATION   5.28E-02  WATTS


**** 05/18/22 20:45:43 ******* PSpice 17.4.0 (Nov 2018) ******* ID# 0 ********

 ** Profile: "SCHEMATIC1-simulare"  [ C:\OrcadProjects\proiect\cad_project-pspicefiles\schematic1\simulare.sim ] 


 ****     INITIAL TRANSIENT SOLUTION       TEMPERATURE =   27.000 DEG C

 ****     CURRENT STEP                     PARAM SET =     .6   


******************************************************************************



 NODE   VOLTAGE     NODE   VOLTAGE     NODE   VOLTAGE     NODE   VOLTAGE


(  OUT)    9.9558  (N03415)   12.0680 (N03521)    6.0339 (N03525)    6.0339     

(N03529)    7.4691 (N03635)    0.0000 (N03643)    0.0000 (N03673)   10.5550     

(N03735)    7.4669 (N03743)    9.9589 (N04053)    6.2224 (N08279)    9.3336     

(X_U3A.6)    -.0570                   (X_U3A.7)   11.7620                       

(X_U3A.8)   11.7620                   (X_U3A.9)    0.0000                       

(X_U3A.10)    7.8650                  (X_U3A.11)   11.6410                      

(X_U3A.12)   11.6380                  (X_U3A.53)    9.7520                      

(X_U3A.54)    2.3158                  (X_U3A.90)   24.1450                      

(X_U3A.91)   40.0000                  (X_U3A.92)  -40.0000                      

(X_U3A.99)    6.0339                  (X_D5.xinst1n4737.1)     .4739            

(X_D5.xinst1n4737.3)    6.9951        (X_D5.xinst1n4737.9) 16.24E-06        




    VOLTAGE SOURCE CURRENTS
    NAME         CURRENT

    V_V1         0.000E+00
    X_U3A.vb    -5.696E-07
    X_U3A.vc    -2.392E-02
    X_U3A.ve     7.923E-12
    X_U3A.vlim   2.415E-02
    X_U3A.vlp   -1.586E-11
    X_U3A.vln   -6.415E-11

    TOTAL POWER DISSIPATION   5.54E-02  WATTS


**** 05/18/22 20:45:43 ******* PSpice 17.4.0 (Nov 2018) ******* ID# 0 ********

 ** Profile: "SCHEMATIC1-simulare"  [ C:\OrcadProjects\proiect\cad_project-pspicefiles\schematic1\simulare.sim ] 


 ****     INITIAL TRANSIENT SOLUTION       TEMPERATURE =   27.000 DEG C

 ****     CURRENT STEP                     PARAM SET =     .7   


******************************************************************************



 NODE   VOLTAGE     NODE   VOLTAGE     NODE   VOLTAGE     NODE   VOLTAGE


(  OUT)   10.3900  (N03415)   12.5020 (N03521)    6.2512 (N03525)    6.2512     

(N03529)    7.4705 (N03635)    0.0000 (N03643)    0.0000 (N03673)   10.9900     

(N03735)    7.4682 (N03743)   10.3940 (N04053)    6.4941 (N08279)    9.7411     

(X_U3A.6)    -.0598                   (X_U3A.7)   12.2580                       

(X_U3A.8)   12.2580                   (X_U3A.9)    0.0000                       

(X_U3A.10)    7.8667                  (X_U3A.11)   12.0760                      

(X_U3A.12)   12.0730                  (X_U3A.53)   10.1870                      

(X_U3A.54)    2.3158                  (X_U3A.90)   25.3550                      

(X_U3A.91)   40.0000                  (X_U3A.92)  -40.0000                      

(X_U3A.99)    6.2512                  (X_D5.xinst1n4737.1)     .4754            

(X_D5.xinst1n4737.3)    6.9951        (X_D5.xinst1n4737.9) 17.78E-06        




    VOLTAGE SOURCE CURRENTS
    NAME         CURRENT

    V_V1         0.000E+00
    X_U3A.vb    -5.982E-07
    X_U3A.vc    -2.512E-02
    X_U3A.ve     8.359E-12
    X_U3A.vlim   2.536E-02
    X_U3A.vlp   -1.465E-11
    X_U3A.vln   -6.536E-11

    TOTAL POWER DISSIPATION   5.82E-02  WATTS


**** 05/18/22 20:45:43 ******* PSpice 17.4.0 (Nov 2018) ******* ID# 0 ********

 ** Profile: "SCHEMATIC1-simulare"  [ C:\OrcadProjects\proiect\cad_project-pspicefiles\schematic1\simulare.sim ] 


 ****     INITIAL TRANSIENT SOLUTION       TEMPERATURE =   27.000 DEG C

 ****     CURRENT STEP                     PARAM SET =     .8   


******************************************************************************



 NODE   VOLTAGE     NODE   VOLTAGE     NODE   VOLTAGE     NODE   VOLTAGE


(  OUT)   10.8650  (N03415)   12.9770 (N03521)    6.4876 (N03525)    6.4876     

(N03529)    7.4719 (N03635)    0.0000 (N03643)    0.0000 (N03673)   11.4660     

(N03735)    7.4695 (N03743)   10.8680 (N04053)    6.7904 (N08279)   10.1860     

